Time [s],Channel 0,Channel 1,resp_gpio10,ce,csn,sck,miso,mosi
-0.010000000,1,1,0,1,1,0,0,0
-0.000000000,1,1,0,0,1,0,0,0
0.005902417,1,1,0,0,0,0,0,0
0.005945083,1,1,0,0,0,1,0,0
0.005945250,1,1,0,0,0,0,0,0
0.005945333,1,1,0,0,0,1,0,0
0.005945500,1,1,0,0,0,0,0,1
0.005945583,1,1,0,0,0,1,0,1
0.005945750,1,1,0,0,0,0,0,0
0.005945833,1,1,0,0,0,1,0,0
0.005946000,1,1,0,0,0,0,1,0
0.005946167,1,1,0,0,0,1,1,0
0.005946250,1,1,0,0,0,0,1,0
0.005946417,1,1,0,0,0,1,1,0
0.005946500,1,1,0,0,0,0,1,1
0.005946667,1,1,0,0,0,1,1,1
0.005946750,1,1,0,0,0,0,0,1
0.005946917,1,1,0,0,0,1,0,1
0.005947000,1,1,0,0,0,0,0,0
0.005988167,1,1,0,0,0,1,0,0
0.005988250,1,1,0,0,0,0,0,0
0.005988417,1,1,0,0,0,1,0,0
0.005988500,1,1,0,0,0,0,0,0
0.005988667,1,1,0,0,0,1,0,0
0.005988750,1,1,0,0,0,0,0,0
0.005988917,1,1,0,0,0,1,0,0
0.005989000,1,1,0,0,0,0,0,0
0.005989167,1,1,0,0,0,1,0,0
0.005989250,1,1,0,0,0,0,0,0
0.005989417,1,1,0,0,0,1,0,0
0.005989500,1,1,0,0,0,0,0,1
0.005989667,1,1,0,0,0,1,0,1
0.005989833,1,1,0,0,0,0,0,1
0.005989917,1,1,0,0,0,1,0,1
0.005990083,1,1,0,0,0,0,0,0
0.005999417,1,1,0,0,1,0,0,0
0.006036167,1,1,0,0,0,0,0,0
0.006053000,1,1,0,0,0,1,0,0
0.006053083,1,1,0,0,0,0,0,0
0.006053250,1,1,0,0,0,1,0,0
0.006053333,1,1,0,0,0,0,0,0
0.006053500,1,1,0,0,0,1,0,0
0.006053667,1,1,0,0,0,0,0,0
0.006053750,1,1,0,0,0,1,0,0
0.006053917,1,1,0,0,0,0,1,0
0.006054000,1,1,0,0,0,1,1,0
0.006054167,1,1,0,0,0,0,1,0
0.006054250,1,1,0,0,0,1,1,0
0.006054417,1,1,0,0,0,0,1,1
0.006054500,1,1,0,0,0,1,1,1
0.006054667,1,1,0,0,0,0,0,1
0.006054750,1,1,0,0,0,1,0,1
0.006054917,1,1,0,0,0,0,0,0
0.006066250,1,1,0,0,0,1,0,0
0.006066333,1,1,0,0,0,0,0,0
0.006066500,1,1,0,0,0,1,0,0
0.006066667,1,1,0,0,0,0,0,0
0.006066750,1,1,0,0,0,1,0,0
0.006066917,1,1,0,0,0,0,0,0
0.006067000,1,1,0,0,0,1,0,0
0.006067167,1,1,0,0,0,0,0,0
0.006067250,1,1,0,0,0,1,0,0
0.006067417,1,1,0,0,0,0,0,0
0.006067500,1,1,0,0,0,1,0,0
0.006067667,1,1,0,0,0,0,1,0
0.006067750,1,1,0,0,0,1,1,0
0.006067917,1,1,0,0,0,0,1,0
0.006068000,1,1,0,0,0,1,1,0
0.006068167,1,1,0,0,0,0,0,0
0.006075500,1,1,0,0,1,0,0,0
0.006129750,1,1,0,0,0,0,0,0
0.006143750,1,1,0,0,0,1,0,0
0.006143833,1,1,0,0,0,0,0,0
0.006144000,1,1,0,0,0,1,0,0
0.006144083,1,1,0,0,0,0,0,1
0.006144250,1,1,0,0,0,1,0,1
0.006144333,1,1,0,0,0,0,0,1
0.006144500,1,1,0,0,0,1,0,1
0.006144583,1,1,0,0,0,0,0,1
0.006144667,1,1,0,0,0,0,1,1
0.006144750,1,1,0,0,0,1,1,1
0.006144917,1,1,0,0,0,0,1,1
0.006145000,1,1,0,0,0,1,1,1
0.006145167,1,1,0,0,0,0,1,0
0.006145250,1,1,0,0,0,1,1,0
0.006145417,1,1,0,0,0,0,0,0
0.006145500,1,1,0,0,0,1,0,0
0.006145667,1,1,0,0,0,0,0,0
0.006164500,1,1,0,0,0,1,0,0
0.006164667,1,1,0,0,0,0,0,0
0.006164750,1,1,0,0,0,1,0,0
0.006164917,1,1,0,0,0,0,0,0
0.006165000,1,1,0,0,0,1,0,0
0.006165167,1,1,0,0,0,0,0,0
0.006165250,1,1,0,0,0,1,0,0
0.006165417,1,1,0,0,0,0,0,0
0.006165500,1,1,0,0,0,1,0,0
0.006165667,1,1,0,0,0,0,0,0
0.006165750,1,1,0,0,0,1,0,0
0.006165917,1,1,0,0,0,0,0,0
0.006166083,1,1,0,0,0,1,0,0
0.006166167,1,1,0,0,0,0,0,0
0.006166333,1,1,0,0,0,1,0,0
0.006166417,1,1,0,0,0,0,0,0
0.006177000,1,1,0,0,1,0,0,0
0.006209083,1,1,0,0,0,0,0,0
0.006222750,1,1,0,0,0,1,0,0
0.006222833,1,1,0,0,0,0,0,0
0.006223000,1,1,0,0,0,1,0,0
0.006223083,1,1,0,0,0,0,0,1
0.006223250,1,1,0,0,0,1,0,1
0.006223333,1,1,0,0,0,0,0,0
0.006223500,1,1,0,0,0,1,0,0
0.006223583,1,1,0,0,0,0,0,0
0.006223667,1,1,0,0,0,0,1,0
0.006223750,1,1,0,0,0,1,1,0
0.006223833,1,1,0,0,0,0,1,1
0.006224000,1,1,0,0,0,1,1,1
0.006224083,1,1,0,0,0,0,1,0
0.006224250,1,1,0,0,0,1,1,0
0.006224417,1,1,0,0,0,0,0,0
0.006224500,1,1,0,0,0,1,0,0
0.006224667,1,1,0,0,0,0,0,0
0.006245500,1,1,0,0,0,1,0,0
0.006245667,1,1,0,0,0,0,0,1
0.006245750,1,1,0,0,0,1,0,1
0.006245917,1,1,0,0,0,0,0,1
0.006246000,1,1,0,0,0,1,0,1
0.006246167,1,1,0,0,0,0,0,0
0.006246250,1,1,0,0,0,1,0,0
0.006246417,1,1,0,0,0,0,0,1
0.006246500,1,1,0,0,0,1,0,1
0.006246667,1,1,0,0,0,0,0,0
0.006246833,1,1,0,0,0,1,0,0
0.006246917,1,1,0,0,0,0,0,0
0.006247083,1,1,0,0,0,1,0,0
0.006247167,1,1,0,0,0,0,0,0
0.006247333,1,1,0,0,0,1,0,0
0.006247417,1,1,0,0,0,0,0,0
0.006257583,1,1,0,0,1,0,0,0
0.006304667,1,1,0,0,0,0,0,0
0.006319500,1,1,0,0,0,1,0,0
0.006319583,1,1,0,0,0,0,0,0
0.006319750,1,1,0,0,0,1,0,0
0.006319833,1,1,0,0,0,0,0,0
0.006320000,1,1,0,0,0,1,0,0
0.006320167,1,1,0,0,0,0,0,0
0.006320250,1,1,0,0,0,1,0,0
0.006320417,1,1,0,0,0,0,1,0
0.006320500,1,1,0,0,0,1,1,0
0.006320667,1,1,0,0,0,0,1,1
0.006320750,1,1,0,0,0,1,1,1
0.006320917,1,1,0,0,0,0,1,1
0.006321000,1,1,0,0,0,1,1,1
0.006321167,1,1,0,0,0,0,0,0
0.006321250,1,1,0,0,0,1,0,0
0.006321417,1,1,0,0,0,0,0,0
0.006332333,1,1,0,0,0,1,0,0
0.006332500,1,1,0,0,0,0,0,0
0.006332583,1,1,0,0,0,1,0,0
0.006332750,1,1,0,0,0,0,1,0
0.006332833,1,1,0,0,0,1,1,0
0.006333000,1,1,0,0,0,0,0,0
0.006333167,1,1,0,0,0,1,0,0
0.006333250,1,1,0,0,0,0,0,0
0.006333417,1,1,0,0,0,1,0,0
0.006333500,1,1,0,0,0,0,1,0
0.006333667,1,1,0,0,0,1,1,0
0.006333750,1,1,0,0,0,0,1,0
0.006333917,1,1,0,0,0,1,1,0
0.006334000,1,1,0,0,0,0,1,0
0.006334167,1,1,0,0,0,1,1,0
0.006334250,1,1,0,0,0,0,1,0
0.006334333,1,1,0,0,0,0,0,0
0.006342000,1,1,0,0,1,0,0,0
0.006382667,1,1,0,0,0,0,0,0
0.006398667,1,1,0,0,0,1,0,0
0.006398833,1,1,0,0,0,0,0,0
0.006398917,1,1,0,0,0,1,0,0
0.006399083,1,1,0,0,0,0,0,1
0.006399167,1,1,0,0,0,1,0,1
0.006399333,1,1,0,0,0,0,0,0
0.006399417,1,1,0,0,0,1,0,0
0.006399583,1,1,0,0,0,0,1,0
0.006399667,1,1,0,0,0,1,1,0
0.006399833,1,1,0,0,0,0,1,1
0.006400000,1,1,0,0,0,1,1,1
0.006400083,1,1,0,0,0,0,1,1
0.006400250,1,1,0,0,0,1,1,1
0.006400333,1,1,0,0,0,0,0,0
0.006400500,1,1,0,0,0,1,0,0
0.006400583,1,1,0,0,0,0,0,0
0.006421500,1,1,0,0,0,1,0,0
0.006421583,1,1,0,0,0,0,0,0
0.006421750,1,1,0,0,0,1,0,0
0.006421917,1,1,0,0,0,0,0,1
0.006422000,1,1,0,0,0,1,0,1
0.006422167,1,1,0,0,0,0,0,0
0.006422250,1,1,0,0,0,1,0,0
0.006422417,1,1,0,0,0,0,0,0
0.006422500,1,1,0,0,0,1,0,0
0.006422667,1,1,0,0,0,0,0,1
0.006422750,1,1,0,0,0,1,0,1
0.006422917,1,1,0,0,0,0,0,1
0.006423000,1,1,0,0,0,1,0,1
0.006423167,1,1,0,0,0,0,0,1
0.006423250,1,1,0,0,0,1,0,1
0.006423417,1,1,0,0,0,0,0,0
0.006433583,1,1,0,0,1,0,0,0
0.006484833,1,1,0,0,0,0,0,0
0.006498000,1,1,0,0,0,1,0,0
0.006498167,1,1,0,0,0,0,0,0
0.006498250,1,1,0,0,0,1,0,0
0.006498417,1,1,0,0,0,0,0,0
0.006498500,1,1,0,0,0,1,0,0
0.006498667,1,1,0,0,0,0,0,0
0.006498750,1,1,0,0,0,1,0,0
0.006498917,1,1,0,0,0,0,1,0
0.006499000,1,1,0,0,0,1,1,0
0.006499167,1,1,0,0,0,0,1,0
0.006499333,1,1,0,0,0,1,1,0
0.006499417,1,1,0,0,0,0,1,0
0.006499583,1,1,0,0,0,1,1,0
0.006499667,1,1,0,0,0,0,0,0
0.006499833,1,1,0,0,0,1,0,0
0.006499917,1,1,0,0,0,0,0,0
0.006509667,1,1,0,0,0,1,0,0
0.006509750,1,1,0,0,0,0,0,0
0.006509917,1,1,0,0,0,1,0,0
0.006510083,1,1,0,0,0,0,0,0
0.006510167,1,1,0,0,0,1,0,0
0.006510333,1,1,0,0,0,0,0,0
0.006510417,1,1,0,0,0,1,0,0
0.006510583,1,1,0,0,0,0,1,0
0.006510667,1,1,0,0,0,1,1,0
0.006510833,1,1,0,0,0,0,1,0
0.006510917,1,1,0,0,0,1,1,0
0.006511083,1,1,0,0,0,0,1,0
0.006511167,1,1,0,0,0,1,1,0
0.006511333,1,1,0,0,0,0,1,0
0.006511417,1,1,0,0,0,1,1,0
0.006511583,1,1,0,0,0,0,0,0
0.006517667,1,1,0,0,1,0,0,0
0.006572917,1,1,0,0,0,0,0,0
0.006588917,1,1,0,0,0,1,0,0
0.006589083,1,1,0,0,0,0,0,0
0.006589167,1,1,0,0,0,1,0,0
0.006589333,1,1,0,0,0,0,0,1
0.006589500,1,1,0,0,0,1,0,1
0.006589583,1,1,0,0,0,0,0,0
0.006589750,1,1,0,0,0,1,0,0
0.006589833,1,1,0,0,0,0,1,0
0.006590000,1,1,0,0,0,1,1,0
0.006590083,1,1,0,0,0,0,1,0
0.006590250,1,1,0,0,0,1,1,0
0.006590333,1,1,0,0,0,0,1,0
0.006590500,1,1,0,0,0,1,1,0
0.006590583,1,1,0,0,0,0,1,0
0.006590667,1,1,0,0,0,0,0,0
0.006590750,1,1,0,0,0,1,0,0
0.006590833,1,1,0,0,0,0,0,0
0.006612167,1,1,0,0,0,1,0,0
0.006612250,1,1,0,0,0,0,0,0
0.006612417,1,1,0,0,0,1,0,0
0.006612583,1,1,0,0,0,0,0,0
0.006612667,1,1,0,0,0,1,0,0
0.006612833,1,1,0,0,0,0,0,0
0.006612917,1,1,0,0,0,1,0,0
0.006613083,1,1,0,0,0,0,0,1
0.006613167,1,1,0,0,0,1,0,1
0.006613333,1,1,0,0,0,0,0,1
0.006613417,1,1,0,0,0,1,0,1
0.006613583,1,1,0,0,0,0,0,1
0.006613667,1,1,0,0,0,1,0,1
0.006613833,1,1,0,0,0,0,0,1
0.006613917,1,1,0,0,0,1,0,1
0.006614083,1,1,0,0,0,0,0,0
0.006623000,1,1,0,0,1,0,0,0
0.006656000,1,1,0,0,0,0,0,0
0.006672333,1,1,0,0,0,1,0,0
0.006672500,1,1,0,0,0,0,0,0
0.006672667,1,1,0,0,0,1,0,0
0.006672750,1,1,0,0,0,0,0,1
0.006672917,1,1,0,0,0,1,0,1
0.006673000,1,1,0,0,0,0,0,0
0.006673167,1,1,0,0,0,1,0,0
0.006673250,1,1,0,0,0,0,1,0
0.006673417,1,1,0,0,0,1,1,0
0.006673500,1,1,0,0,0,0,1,1
0.006673667,1,1,0,0,0,1,1,1
0.006673750,1,1,0,0,0,0,1,1
0.006673917,1,1,0,0,0,1,1,1
0.006674000,1,1,0,0,0,0,1,1
0.006674083,1,1,0,0,0,0,0,1
0.006674167,1,1,0,0,0,1,0,1
0.006674250,1,1,0,0,0,0,0,0
0.006696417,1,1,0,0,0,1,0,0
0.006696500,1,1,0,0,0,0,0,1
0.006696667,1,1,0,0,0,1,0,1
0.006696750,1,1,0,0,0,0,0,1
0.006696917,1,1,0,0,0,1,0,1
0.006697000,1,1,0,0,0,0,0,1
0.006697167,1,1,0,0,0,1,0,1
0.006697333,1,1,0,0,0,0,0,0
0.006697417,1,1,0,0,0,1,0,0
0.006697583,1,1,0,0,0,0,0,0
0.006697667,1,1,0,0,0,1,0,0
0.006697833,1,1,0,0,0,0,0,0
0.006697917,1,1,0,0,0,1,0,0
0.006698083,1,1,0,0,0,0,0,0
0.006698167,1,1,0,0,0,1,0,0
0.006698333,1,1,0,0,0,0,0,0
0.006706833,1,1,0,0,1,0,0,0
0.006787250,1,1,0,0,0,0,0,0
0.006804083,1,1,0,0,0,1,0,0
0.006804167,1,1,0,0,0,0,0,0
0.006804333,1,1,0,0,0,1,0,0
0.006804417,1,1,0,0,0,0,0,1
0.006804583,1,1,0,0,0,1,0,1
0.006804667,1,1,0,0,0,0,0,0
0.006804833,1,1,0,0,0,1,0,0
0.006804917,1,1,0,0,0,0,1,0
0.006805083,1,1,0,0,0,1,1,0
0.006805167,1,1,0,0,0,0,1,1
0.006805333,1,1,0,0,0,1,1,1
0.006805417,1,1,0,0,0,0,1,0
0.006805583,1,1,0,0,0,1,1,0
0.006805750,1,1,0,0,0,0,0,1
0.006805833,1,1,0,0,0,1,0,1
0.006806000,1,1,0,0,0,0,0,0
0.006828500,1,1,0,0,0,1,0,0
0.006828583,1,1,0,0,0,0,0,0
0.006828750,1,1,0,0,0,1,0,0
0.006828833,1,1,0,0,0,0,0,1
0.006829000,1,1,0,0,0,1,0,1
0.006829083,1,1,0,0,0,0,0,0
0.006829250,1,1,0,0,0,1,0,0
0.006829333,1,1,0,0,0,0,0,1
0.006829500,1,1,0,0,0,1,0,1
0.006829667,1,1,0,0,0,0,0,1
0.006829750,1,1,0,0,0,1,0,1
0.006829917,1,1,0,0,0,0,0,1
0.006830000,1,1,0,0,0,1,0,1
0.006830167,1,1,0,0,0,0,0,0
0.006830250,1,1,0,0,0,1,0,0
0.006830417,1,1,0,0,0,0,0,0
0.006838917,1,1,0,0,1,0,0,0
0.006873833,1,1,0,0,0,0,0,0
0.006887000,1,1,0,0,0,0,0,1
0.006887167,1,1,0,0,0,1,0,1
0.006887333,1,1,0,0,0,0,0,1
0.006887417,1,1,0,0,0,1,0,1
0.006887583,1,1,0,0,0,0,0,1
0.006887667,1,1,0,0,0,1,0,1
0.006887833,1,1,0,0,0,0,0,0
0.006887917,1,1,0,0,0,1,0,0
0.006888083,1,1,0,0,0,0,1,0
0.006888167,1,1,0,0,0,1,1,0
0.006888333,1,1,0,0,0,0,1,0
0.006888417,1,1,0,0,0,1,1,0
0.006888583,1,1,0,0,0,0,1,1
0.006888667,1,1,0,0,0,1,1,1
0.006888833,1,1,0,0,0,0,0,0
0.006888917,1,1,0,0,0,1,0,0
0.006889083,1,1,0,0,0,0,0,0
0.006895167,1,1,0,0,1,0,0,0
0.006922750,1,1,0,0,0,0,0,0
0.006935250,1,1,0,0,0,0,0,1
0.006935333,1,1,0,0,0,1,0,1
0.006935500,1,1,0,0,0,0,0,1
0.006935583,1,1,0,0,0,1,0,1
0.006935750,1,1,0,0,0,0,0,1
0.006935833,1,1,0,0,0,1,0,1
0.006936000,1,1,0,0,0,0,0,0
0.006936083,1,1,0,0,0,1,0,0
0.006936250,1,1,0,0,0,0,1,0
0.006936333,1,1,0,0,0,1,1,0
0.006936500,1,1,0,0,0,0,1,0
0.006936583,1,1,0,0,0,1,1,0
0.006936750,1,1,0,0,0,0,1,0
0.006936917,1,1,0,0,0,1,1,0
0.006937000,1,1,0,0,0,0,0,1
0.006937167,1,1,0,0,0,1,0,1
0.006937250,1,1,0,0,0,0,0,0
0.006945000,1,1,0,0,1,0,0,0
0.007061417,1,1,0,0,0,0,0,0
0.007080083,1,1,0,0,0,1,0,0
0.007080250,1,1,0,0,0,0,0,0
0.007080333,1,1,0,0,0,1,0,0
0.007080500,1,1,0,0,0,0,0,1
0.007080583,1,1,0,0,0,1,0,1
0.007080750,1,1,0,0,0,0,0,0
0.007080833,1,1,0,0,0,1,0,0
0.007081000,1,1,0,0,0,0,1,1
0.007081167,1,1,0,0,0,1,1,1
0.007081250,1,1,0,0,0,0,1,0
0.007081417,1,1,0,0,0,1,1,0
0.007081500,1,1,0,0,0,0,1,1
0.007081667,1,1,0,0,0,1,1,1
0.007081750,1,1,0,0,0,0,0,0
0.007081917,1,1,0,0,0,1,0,0
0.007082000,1,1,0,0,0,0,0,0
0.007103250,1,1,0,0,0,0,0,1
0.007103417,1,1,0,0,0,1,0,1
0.007103500,1,1,0,0,0,0,0,1
0.007103667,1,1,0,0,0,1,0,1
0.007103750,1,1,0,0,0,0,0,1
0.007103917,1,1,0,0,0,1,0,1
0.007104000,1,1,0,0,0,0,0,0
0.007104167,1,1,0,0,0,1,0,0
0.007104250,1,1,0,0,0,0,0,0
0.007104417,1,1,0,0,0,1,0,0
0.007104500,1,1,0,0,0,0,0,0
0.007104667,1,1,0,0,0,1,0,0
0.007104750,1,1,0,0,0,0,0,0
0.007104917,1,1,0,0,0,1,0,0
0.007105000,1,1,0,0,0,0,0,1
0.007105167,1,1,0,0,0,1,0,1
0.007105333,1,1,0,0,0,0,0,0
0.007105667,1,1,0,0,0,0,0,1
0.007105833,1,1,0,0,0,1,0,1
0.007105917,1,1,0,0,0,0,0,1
0.007106083,1,1,0,0,0,1,0,1
0.007106167,1,1,0,0,0,0,0,1
0.007106333,1,1,0,0,0,1,0,1
0.007106417,1,1,0,0,0,0,0,1
0.007106583,1,1,0,0,0,1,0,1
0.007106667,1,1,0,0,0,0,0,0
0.007106833,1,1,0,0,0,1,0,0
0.007107000,1,1,0,0,0,0,0,0
0.007107083,1,1,0,0,0,1,0,0
0.007107250,1,1,0,0,0,0,0,0
0.007107333,1,1,0,0,0,1,0,0
0.007107500,1,1,0,0,0,0,0,0
0.007107583,1,1,0,0,0,1,0,0
0.007107750,1,1,0,0,0,0,0,0
0.007108083,1,1,0,0,0,0,0,1
0.007108250,1,1,0,0,0,1,0,1
0.007108333,1,1,0,0,0,0,0,1
0.007108500,1,1,0,0,0,1,0,1
0.007108583,1,1,0,0,0,0,0,1
0.007108750,1,1,0,0,0,1,0,1
0.007108917,1,1,0,0,0,0,0,1
0.007109000,1,1,0,0,0,1,0,1
0.007109167,1,1,0,0,0,0,0,0
0.007109250,1,1,0,0,0,1,0,0
0.007109417,1,1,0,0,0,0,0,0
0.007109500,1,1,0,0,0,1,0,0
0.007109667,1,1,0,0,0,0,0,0
0.007109750,1,1,0,0,0,1,0,0
0.007109917,1,1,0,0,0,0,0,0
0.007110000,1,1,0,0,0,1,0,0
0.007110167,1,1,0,0,0,0,0,0
0.007110583,1,1,0,0,0,0,0,1
0.007110667,1,1,0,0,0,1,0,1
0.007110833,1,1,0,0,0,0,0,1
0.007110917,1,1,0,0,0,1,0,1
0.007111083,1,1,0,0,0,0,0,1
0.007111167,1,1,0,0,0,1,0,1
0.007111333,1,1,0,0,0,0,0,1
0.007111417,1,1,0,0,0,1,0,1
0.007111583,1,1,0,0,0,0,0,0
0.007111667,1,1,0,0,0,1,0,0
0.007111833,1,1,0,0,0,0,0,0
0.007111917,1,1,0,0,0,1,0,0
0.007112083,1,1,0,0,0,0,0,0
0.007112167,1,1,0,0,0,1,0,0
0.007112333,1,1,0,0,0,0,0,0
0.007112500,1,1,0,0,0,1,0,0
0.007112583,1,1,0,0,0,0,0,0
0.007113000,1,1,0,0,0,0,0,1
0.007113083,1,1,0,0,0,1,0,1
0.007113250,1,1,0,0,0,0,0,1
0.007113333,1,1,0,0,0,1,0,1
0.007113500,1,1,0,0,0,0,0,1
0.007113583,1,1,0,0,0,1,0,1
0.007113750,1,1,0,0,0,0,0,1
0.007113833,1,1,0,0,0,1,0,1
0.007114000,1,1,0,0,0,0,0,0
0.007114167,1,1,0,0,0,1,0,0
0.007114250,1,1,0,0,0,0,0,0
0.007114417,1,1,0,0,0,1,0,0
0.007114500,1,1,0,0,0,0,0,0
0.007114667,1,1,0,0,0,1,0,0
0.007114750,1,1,0,0,0,0,0,0
0.007114917,1,1,0,0,0,1,0,0
0.007115000,1,1,0,0,0,0,0,0
0.007124167,1,1,0,0,1,0,0,0
0.007167333,1,1,0,0,0,0,0,0
0.007184167,1,1,0,0,0,1,0,0
0.007184250,1,1,0,0,0,0,0,0
0.007184417,1,1,0,0,0,1,0,0
0.007184500,1,1,0,0,0,0,0,1
0.007184667,1,1,0,0,0,1,0,1
0.007184750,1,1,0,0,0,0,0,1
0.007184917,1,1,0,0,0,1,0,1
0.007185083,1,1,0,0,0,0,1,0
0.007185167,1,1,0,0,0,1,1,0
0.007185333,1,1,0,0,0,0,1,0
0.007185417,1,1,0,0,0,1,1,0
0.007185583,1,1,0,0,0,0,1,0
0.007185667,1,1,0,0,0,1,1,0
0.007185833,1,1,0,0,0,0,0,0
0.007185917,1,1,0,0,0,1,0,0
0.007186083,1,1,0,0,0,0,0,0
0.007194417,1,1,0,0,0,0,0,1
0.007194500,1,1,0,0,0,1,0,1
0.007194667,1,1,0,0,0,0,0,1
0.007194750,1,1,0,0,0,1,0,1
0.007194917,1,1,0,0,0,0,0,1
0.007195000,1,1,0,0,0,1,0,1
0.007195167,1,1,0,0,0,0,0,0
0.007195250,1,1,0,0,0,1,0,0
0.007195417,1,1,0,0,0,0,0,0
0.007195583,1,1,0,0,0,1,0,0
0.007195667,1,1,0,0,0,0,0,0
0.007195833,1,1,0,0,0,1,0,0
0.007195917,1,1,0,0,0,0,0,0
0.007196083,1,1,0,0,0,1,0,0
0.007196167,1,1,0,0,0,0,0,1
0.007196333,1,1,0,0,0,1,0,1
0.007196417,1,1,0,0,0,0,0,0
0.007196833,1,1,0,0,0,0,0,1
0.007196917,1,1,0,0,0,1,0,1
0.007197083,1,1,0,0,0,0,0,1
0.007197167,1,1,0,0,0,1,0,1
0.007197333,1,1,0,0,0,0,0,1
0.007197500,1,1,0,0,0,1,0,1
0.007197583,1,1,0,0,0,0,0,1
0.007197750,1,1,0,0,0,1,0,1
0.007197833,1,1,0,0,0,0,0,0
0.007198000,1,1,0,0,0,1,0,0
0.007198083,1,1,0,0,0,0,0,0
0.007198250,1,1,0,0,0,1,0,0
0.007198333,1,1,0,0,0,0,0,0
0.007198500,1,1,0,0,0,1,0,0
0.007198583,1,1,0,0,0,0,0,0
0.007198750,1,1,0,0,0,1,0,0
0.007198833,1,1,0,0,0,0,0,0
0.007199250,1,1,0,0,0,0,0,1
0.007199417,1,1,0,0,0,1,0,1
0.007199500,1,1,0,0,0,0,0,1
0.007199667,1,1,0,0,0,1,0,1
0.007199750,1,1,0,0,0,0,0,1
0.007199917,1,1,0,0,0,1,0,1
0.007200000,1,1,0,0,0,0,0,1
0.007200167,1,1,0,0,0,1,0,1
0.007200250,1,1,0,0,0,0,0,0
0.007200417,1,1,0,0,0,1,0,0
0.007200500,1,1,0,0,0,0,0,0
0.007200667,1,1,0,0,0,1,0,0
0.007200750,1,1,0,0,0,0,0,0
0.007200917,1,1,0,0,0,1,0,0
0.007201083,1,1,0,0,0,0,0,0
0.007201167,1,1,0,0,0,1,0,0
0.007201333,1,1,0,0,0,0,0,0
0.007201667,1,1,0,0,0,0,0,1
0.007201833,1,1,0,0,0,1,0,1
0.007201917,1,1,0,0,0,0,0,1
0.007202083,1,1,0,0,0,1,0,1
0.007202167,1,1,0,0,0,0,0,1
0.007202333,1,1,0,0,0,1,0,1
0.007202417,1,1,0,0,0,0,0,1
0.007202583,1,1,0,0,0,1,0,1
0.007202750,1,1,0,0,0,0,0,0
0.007202833,1,1,0,0,0,1,0,0
0.007203000,1,1,0,0,0,0,0,0
0.007203083,1,1,0,0,0,1,0,0
0.007203250,1,1,0,0,0,0,0,0
0.007203333,1,1,0,0,0,1,0,0
0.007203500,1,1,0,0,0,0,0,0
0.007203583,1,1,0,0,0,1,0,0
0.007203750,1,1,0,0,0,0,0,0
0.007204083,1,1,0,0,0,0,0,1
0.007204250,1,1,0,0,0,1,0,1
0.007204333,1,1,0,0,0,0,0,1
0.007204500,1,1,0,0,0,1,0,1
0.007204667,1,1,0,0,0,0,0,1
0.007204750,1,1,0,0,0,1,0,1
0.007204917,1,1,0,0,0,0,0,1
0.007205000,1,1,0,0,0,1,0,1
0.007205167,1,1,0,0,0,0,0,0
0.007205250,1,1,0,0,0,1,0,0
0.007205417,1,1,0,0,0,0,0,0
0.007205500,1,1,0,0,0,1,0,0
0.007205667,1,1,0,0,0,0,0,0
0.007205750,1,1,0,0,0,1,0,0
0.007205917,1,1,0,0,0,0,0,0
0.007206000,1,1,0,0,0,1,0,0
0.007206167,1,1,0,0,0,0,0,0
0.007213250,1,1,0,0,1,0,0,0
0.007258167,1,1,0,0,0,0,0,0
0.007274167,1,1,0,0,0,1,0,0
0.007274333,1,1,0,0,0,0,0,0
0.007274417,1,1,0,0,0,1,0,0
0.007274583,1,1,0,0,0,0,0,1
0.007274667,1,1,0,0,0,1,0,1
0.007274833,1,1,0,0,0,0,0,1
0.007274917,1,1,0,0,0,1,0,1
0.007275083,1,1,0,0,0,0,1,0
0.007275167,1,1,0,0,0,1,1,0
0.007275333,1,1,0,0,0,0,1,0
0.007275417,1,1,0,0,0,1,1,0
0.007275583,1,1,0,0,0,0,1,0
0.007275667,1,1,0,0,0,1,1,0
0.007275833,1,1,0,0,0,0,0,1
0.007275917,1,1,0,0,0,1,0,1
0.007276083,1,1,0,0,0,0,0,0
0.007300250,1,1,0,0,0,1,0,0
0.007300333,1,1,0,0,0,0,0,0
0.007300500,1,1,0,0,0,1,0,0
0.007300583,1,1,0,0,0,0,0,0
0.007300750,1,1,0,0,0,1,0,0
0.007300833,1,1,0,0,0,0,0,0
0.007301000,1,1,0,0,0,1,0,0
0.007301083,1,1,0,0,0,0,0,1
0.007301250,1,1,0,0,0,1,0,1
0.007301333,1,1,0,0,0,0,0,0
0.007301500,1,1,0,0,0,1,0,0
0.007301583,1,1,0,0,0,0,0,0
0.007301750,1,1,0,0,0,1,0,0
0.007301917,1,1,0,0,0,0,0,0
0.007302000,1,1,0,0,0,1,0,0
0.007302167,1,1,0,0,0,0,0,0
0.007311917,1,1,0,0,1,0,0,0
0.007407917,1,1,0,0,0,0,0,0
0.007425000,1,1,0,0,0,1,0,0
0.007425083,1,1,0,0,0,0,0,0
0.007425250,1,1,0,0,0,1,0,0
0.007425417,1,1,0,0,0,0,0,1
0.007425500,1,1,0,0,0,1,0,1
0.007425667,1,1,0,0,0,0,0,0
0.007425750,1,1,0,0,0,1,0,0
0.007425917,1,1,0,0,0,0,1,1
0.007426000,1,1,0,0,0,1,1,1
0.007426167,1,1,0,0,0,0,1,0
0.007426250,1,1,0,0,0,1,1,0
0.007426417,1,1,0,0,0,0,1,1
0.007426500,1,1,0,0,0,1,1,1
0.007426667,1,1,0,0,0,0,0,1
0.007426750,1,1,0,0,0,1,0,1
0.007426917,1,1,0,0,0,0,0,0
0.007436000,1,1,0,0,0,0,0,1
0.007436167,1,1,0,0,0,1,0,1
0.007436333,1,1,0,0,0,0,0,1
0.007436417,1,1,0,0,0,1,0,1
0.007436583,1,1,0,0,0,0,0,0
0.007436667,1,1,0,0,0,1,0,0
0.007436833,1,1,0,0,0,0,0,1
0.007436917,1,1,0,0,0,1,0,1
0.007437083,1,1,0,0,0,0,0,0
0.007437167,1,1,0,0,0,1,0,0
0.007437333,1,1,0,0,0,0,0,0
0.007437417,1,1,0,0,0,1,0,0
0.007437583,1,1,0,0,0,0,0,1
0.007437667,1,1,0,0,0,1,0,1
0.007437833,1,1,0,0,0,0,0,0
0.007438000,1,1,0,0,0,1,0,0
0.007438083,1,1,0,0,0,0,0,0
0.007438500,1,1,0,0,0,0,0,1
0.007438583,1,1,0,0,0,1,0,1
0.007438750,1,1,0,0,0,0,0,1
0.007438833,1,1,0,0,0,1,0,1
0.007439000,1,1,0,0,0,0,0,1
0.007439083,1,1,0,0,0,1,0,1
0.007439250,1,1,0,0,0,0,0,1
0.007439333,1,1,0,0,0,1,0,1
0.007439500,1,1,0,0,0,0,0,0
0.007439667,1,1,0,0,0,1,0,0
0.007439750,1,1,0,0,0,0,0,0
0.007439917,1,1,0,0,0,1,0,0
0.007440000,1,1,0,0,0,0,0,0
0.007440167,1,1,0,0,0,1,0,0
0.007440250,1,1,0,0,0,0,0,0
0.007440417,1,1,0,0,0,1,0,0
0.007440500,1,1,0,0,0,0,0,0
0.007440917,1,1,0,0,0,0,0,1
0.007441000,1,1,0,0,0,1,0,1
0.007441167,1,1,0,0,0,0,0,1
0.007441250,1,1,0,0,0,1,0,1
0.007441417,1,1,0,0,0,0,0,1
0.007441583,1,1,0,0,0,1,0,1
0.007441667,1,1,0,0,0,0,0,1
0.007441833,1,1,0,0,0,1,0,1
0.007441917,1,1,0,0,0,0,0,0
0.007442083,1,1,0,0,0,1,0,0
0.007442167,1,1,0,0,0,0,0,0
0.007442333,1,1,0,0,0,1,0,0
0.007442417,1,1,0,0,0,0,0,0
0.007442583,1,1,0,0,0,1,0,0
0.007442667,1,1,0,0,0,0,0,0
0.007442833,1,1,0,0,0,1,0,0
0.007442917,1,1,0,0,0,0,0,0
0.007443333,1,1,0,0,0,0,0,1
0.007443500,1,1,0,0,0,1,0,1
0.007443583,1,1,0,0,0,0,0,1
0.007443750,1,1,0,0,0,1,0,1
0.007443833,1,1,0,0,0,0,0,1
0.007444000,1,1,0,0,0,1,0,1
0.007444083,1,1,0,0,0,0,0,1
0.007444250,1,1,0,0,0,1,0,1
0.007444333,1,1,0,0,0,0,0,0
0.007444500,1,1,0,0,0,1,0,0
0.007444583,1,1,0,0,0,0,0,0
0.007444750,1,1,0,0,0,1,0,0
0.007444833,1,1,0,0,0,0,0,0
0.007445000,1,1,0,0,0,1,0,0
0.007445167,1,1,0,0,0,0,0,0
0.007445250,1,1,0,0,0,1,0,0
0.007445417,1,1,0,0,0,0,0,0
0.007445750,1,1,0,0,0,0,0,1
0.007445917,1,1,0,0,0,1,0,1
